! Sonnet Data File
! From: em Version : 19.52.2025
! From Project: filter_example_one_reference_step_eval_0p10
! Data is De-embedded 
! Data File Written: 04/27/2026 17:08:40
!< HDATE 04/27/2026 15:58:04
!< MDATE 04/27/2026 15:58:04
!< PARAMS
!< G_outer_open_gui = 1.1
!< G_mid_open_gui = 1.2
!< W_feed_gui = 1.1
!< P_feed_gui = 4.6
!< G_cross_gui = 1.8
!< G_adj_gui = 1.15
!< W_mid_res_gui = 23
!< W_outer_pair_gui = 12
!< END PARAMS
# GHZ S MA R 50.00000
0.750000000000000 0.9923955160514 138.95249834243 0.0303399111019 -131.7886749050 0.0303399111019 -131.7886749050 0.9923955138225 138.95247975320
0.751000000000000 0.9923340591753 138.68766316063 0.0306182935691 -132.0639166566 0.0306182935691 -132.0639166566 0.9923433714283 138.68745734063
0.752000000000000 0.9922715101188 138.42128756271 0.0309028041566 -132.3408603964 0.0309028041566 -132.3408603964 0.9922900181456 138.42089593589
0.753000000000000 0.9922078351578 138.15333956811 0.0311936098624 -132.6195395463 0.0311936098624 -132.6195395463 0.9922354203623 138.15276355783
0.754000000000000 0.9921429992726 137.88378635849 0.0314908833301 -132.8999884212 0.0314908833301 -132.8999884212 0.9921795431778 137.88302738744
0.755000000000000 0.9920769660896 137.61259424987 0.0317948030756 -133.1822422576 0.0317948030756 -133.1822422576 0.9921223503455 137.61165374003
0.756000000000000 0.9920096978192 137.33972866364 0.0321055537250 -133.4663372453 0.0321055537250 -133.4663372453 0.9920638042105 137.33860803620
0.757000000000000 0.9919411551911 137.06515409624 0.0324233262630 -133.7523105588 0.0324233262630 -133.7523105588 0.9920038656448 137.06385477155
0.758000000000000 0.9918712973852 136.78883408769 0.0327483182933 -134.0402003911 0.0327483182933 -134.0402003911 0.9919424939783 136.78735748520
0.759000000000000 0.9918000819595 136.51073118882 0.0330807343118 -134.3300459886 0.0330807343118 -134.3300459886 0.9918796469263 136.50907872700
0.760000000000000 0.9917274647732 136.23080692707 0.0334207859924 -134.6218876871 0.0334207859924 -134.6218876871 0.9918152805129 136.22898002336
0.761000000000000 0.9916533999063 135.94902177095 0.0337686924863 -134.9157669498 0.0337686924863 -134.9157669498 0.9917493489900 135.94702184172
0.762000000000000 0.9915778395740 135.66533509296 0.0341246807366 -135.2117264066 0.0341246807366 -135.2117264066 0.9916818047523 135.66316355341
0.763000000000000 0.9915007340364 135.37970513091 0.0344889858078 -135.5098098951 0.0344889858078 -135.5098098951 0.9916125982464 135.37736339507
0.764000000000000 0.9914220315036 135.09208894766 0.0348618512310 -135.8100625033 0.0348618512310 -135.8100625033 0.9915416778757 135.08957842828
0.765000000000000 0.9913416780341 134.80244238906 0.0352435293671 -136.1125306143 0.0352435293671 -136.1125306143 0.9914689898993 134.79976449758
0.766000000000000 0.9912596174286 134.51072004011 0.0356342817871 -136.4172619528 0.0356342817871 -136.4172619528 0.9913944783251 134.50787618661
0.767000000000000 0.9911757911168 134.21687517917 0.0360343796723 -136.7243056335 0.0360343796723 -136.7243056335 0.9913180847968 134.21386677233
0.768000000000000 0.9910901380374 133.92085973026 0.0364441042337 -137.0337122121 0.0364441042337 -137.0337122121 0.9912397484739 133.91768817725
0.769000000000000 0.9910025945117 133.62262421306 0.0368637471534 -137.3455337378 0.0368637471534 -137.3455337378 0.9911594059046 133.61929091958
0.770000000000000 0.9909130941085 133.32211769089 0.0372936110482 -137.6598238086 0.0372936110482 -137.6598238086 0.9910769908915 133.31862406105
0.771000000000000 0.9908215675021 133.01928771623 0.0377340099566 -137.9766376295 0.0377340099566 -137.9766376295 0.9909924343487 133.01563515253
0.772000000000000 0.9907279423203 132.71408027379 0.0381852698518 -138.2960320720 0.0381852698518 -138.2960320720 0.9909056641500 132.71027017706
0.773000000000000 0.9906321429840 132.40643972101 0.0386477291807 -138.6180657380 0.0386477291807 -138.6180657380 0.9908166049685 132.40247349038
0.774000000000000 0.9905340905365 132.09630872582 0.0391217394308 -138.9427990250 0.0391217394308 -138.9427990250 0.9907251781054 132.09218775867
0.775000000000000 0.9904337024618 131.78362820153 0.0396076657283 -139.2702941956 0.0396076657283 -139.2702941956 0.9906313013086 131.77935389345
0.776000000000000 0.9903308924921 131.46833723866 0.0401058874660 -139.6006154494 0.0401058874660 -139.6006154494 0.9905348885796 131.46391098340
0.777000000000000 0.9902255704022 131.15037303359 0.0406167989664 -139.9338289985 0.0406167989664 -139.9338289985 0.9904358499682 131.14579622302
0.778000000000000 0.9901176417915 130.82967081384 0.0411408101793 -140.2700031470 0.0411408101793 -140.2700031470 0.9903340913540 130.82494483792
0.779000000000000 0.9900070078512 130.50616375972 0.0416783474175 -140.6092083734 0.0416783474175 -140.6092083734 0.9902295142137 130.50129000647
0.780000000000000 0.9898935651166 130.17978292236 0.0422298541329 -140.9515174177 0.0422298541329 -140.9515174177 0.9901220153730 130.17476277779
0.781000000000000 0.9897772052031 129.85045713759 0.0427957917343 -141.2970053723 0.0427957917343 -141.2970053723 0.9900114867425 129.84529198569
0.782000000000000 0.9896578145244 129.51811293574 0.0433766404509 -141.6457497775 0.0433766404509 -141.6457497775 0.9898978150361 129.51280415846
0.783000000000000 0.9895352739922 129.18267444697 0.0439729002437 -141.9978307217 0.0439729002437 -141.9978307217 0.9897808814697 129.17722342416
0.784000000000000 0.9894094586950 128.84406330189 0.0445850917675 -142.3533309464 0.0445850917675 -142.3533309464 0.9896605614404 128.83847141128
0.785000000000000 0.9892802375552 128.50219852722 0.0452137573876 -142.7123359563 0.0452137573876 -142.7123359563 0.9895367241835 128.49646714438
0.786000000000000 0.9891474729629 128.15699643618 0.0458594622537 -143.0749341356 0.0458594622537 -143.0749341356 0.9894092324056 128.15112693454
0.787000000000000 0.9890110203840 127.80837051336 0.0465227954348 -143.4412168693 0.0465227954348 -143.4412168693 0.9892779418926 127.80236426412
0.788000000000000 0.9888707279402 127.45623129362 0.0472043711202 -143.8112786712 0.0472043711202 -143.8112786712 0.9891427010900 127.45008966577
0.789000000000000 0.9887264359607 127.10048623481 0.0479048298889 -144.1852173185 0.0479048298889 -144.1852173185 0.9890033506532 127.09421059510
0.790000000000000 0.9885779765000 126.74103958381 0.0486248400536 -144.5631339928 0.0486248400536 -144.5631339928 0.9888597229665 126.73463129672
0.791000000000000 0.9884251728231 126.37779223556 0.0493650990836 -144.9451334298 0.0493650990836 -144.9451334298 0.9887116416263 126.37125266330
0.792000000000000 0.9882678388508 126.01064158465 0.0501263351107 -145.3313240751 0.0501263351107 -145.3313240751 0.9885589208882 126.00397208714
0.793000000000000 0.9881057785669 125.63948136896 0.0509093085257 -145.7218182495 0.0509093085257 -145.7218182495 0.9884013650715 125.63268330382
0.794000000000000 0.9879387853792 125.26420150493 0.0517148136698 -146.1167323231 0.0517148136698 -146.1167323231 0.9882387679218 125.25727622745
0.795000000000000 0.9877666414339 124.88468791383 0.0525436806282 -146.5161868980 0.0525436806282 -146.5161868980 0.9880709119243 124.87763677699
0.796000000000000 0.9875891168786 124.50082233860 0.0533967771320 -146.9203070021 0.0533967771320 -146.9203070021 0.9878975675657 124.49364669306
0.797000000000000 0.9874059690676 124.11248215052 0.0542750105769 -147.3292222924 0.0542750105769 -147.3292222924 0.9877184925408 124.10518334461
0.798000000000000 0.9872169417080 123.71954014520 0.0551793301652 -147.7430672702 0.0551793301652 -147.7430672702 0.9875334308963 123.71211952495
0.799000000000000 0.9870217639380 123.32186432708 0.0561107291809 -148.1619815085 0.0561107291809 -148.1619815085 0.9873421121099 123.31432323618
0.800000000000000 0.9868201493338 122.91931768170 0.0570702474064 -148.5861098914 0.0570702474064 -148.5861098914 0.9871442500963 122.91165746155
0.801000000000000 0.9866117948379 122.51175793509 0.0580589736904 -149.0156028681 0.0580589736904 -149.0156028681 0.9869395421347 122.50397992481
0.802000000000000 0.9863963796010 122.09903729923 0.0590780486785 -149.4506167206 0.0590780486785 -149.4506167206 0.9867276677106 122.09114283565
0.803000000000000 0.9861735637320 121.68100220274 0.0601286677165 -149.8913138472 0.0601286677165 -149.8913138472 0.9865082872647 121.67299262046
0.804000000000000 0.9859429869444 121.25749300589 0.0612120839400 -150.3378630627 0.0612120839400 -150.3378630627 0.9862810408395 121.24936963728
0.805000000000000 0.9857042670936 120.82834369870 0.0623296115620 -150.7904399160 0.0623296115620 -150.7904399160 0.9860455466146 120.82010787393
0.806000000000000 0.9854569985904 120.39338158110 0.0634826293744 -151.2492270265 0.0634826293744 -151.2492270265 0.9858013993208 120.38503462821
0.807000000000000 0.9852007506841 119.95242692398 0.0646725844769 -151.7144144407 0.0646725844769 -151.7144144407 0.9855481685212 119.94397016889
0.808000000000000 0.9849350655979 119.50529260957 0.0659009962501 -152.1862000102 0.0659009962501 -152.1862000102 0.9852853967468 119.49672737616
0.809000000000000 0.9846594565072 119.05178375000 0.0671694605912 -152.6647897927 0.0671694605912 -152.6647897927 0.9850125974731 119.04311136014
0.810000000000000 0.9843734053419 118.59169728236 0.0684796544303 -153.1503984778 0.0684796544303 -153.1503984778 0.9847292529216 118.58291905597
0.811000000000000 0.9840763603980 118.12482153853 0.0698333405480 -153.6432498385 0.0698333405480 -153.6432498385 0.9844348116706 118.11593879369
0.812000000000000 0.9837677337391 117.65093578824 0.0712323727158 -154.1435772116 0.0712323727158 -154.1435772116 0.9841286860553 117.64194984123
0.813000000000000 0.9834468983674 117.16980975321 0.0726787011835 -154.6516240076 0.0726787011835 -154.6516240076 0.9838102493372 117.16072191862
0.814000000000000 0.9831131851399 116.68120309037 0.0741743785381 -155.1676442532 0.0741743785381 -155.1676442532 0.9834788326199 116.67201468120
0.815000000000000 0.9827658794067 116.18486484202 0.0757215659618 -155.6919031688 0.0757215659618 -155.6919031688 0.9831337214848 116.17557716978
0.816000000000000 0.9824042173413 115.68053285039 0.0773225399178 -156.2246777822 0.0773225399178 -156.2246777822 0.9827741523204 115.67114722521
0.817000000000000 0.9820273819318 115.16793313407 0.0789796992961 -156.7662575830 0.0789796992961 -156.7662575830 0.9823993083118 115.15845086485
0.818000000000000 0.9816344985989 114.64677922353 0.0806955730512 -157.3169452194 0.0806955730512 -157.3169452194 0.9820083150568 114.63720161808
0.819000000000000 0.9812246304011 114.11677145269 0.0824728283691 -157.8770572409 0.0824728283691 -157.8770572409 0.9816002357688 114.10709981789
0.820000000000000 0.9807967727846 113.57759620323 0.0843142794008 -158.4469248905 0.0843142794008 -158.4469248905 0.9811740660246 113.56783184521
0.821000000000000 0.9803498478291 113.02892509830 0.0862228966043 -159.0268949493 0.0862228966043 -159.0268949493 0.9807287280079 113.01906932260
0.822000000000000 0.9798826979362 112.47041414160 0.0882018167377 -159.6173306386 0.0882018167377 -159.6173306386 0.9802630641950 112.46046825344
0.823000000000000 0.9793940789013 111.90170279804 0.0902543535513 -160.2186125828 0.0902543535513 -160.2186125828 0.9797758304238 111.89166810248
0.824000000000000 0.9788826523012 111.32241301132 0.0923840092260 -160.8311398379 0.0923840092260 -160.8311398379 0.9792656882783 111.31229081356
0.825000000000000 0.9783469771234 110.73214815397 0.0945944866126 -161.4553309908 0.0945944866126 -161.4553309908 0.9787311967144 110.72193975959
0.826000000000000 0.9777855005550 110.13049190457 0.0968897023256 -162.0916253342 0.0968897023256 -162.0916253342 0.9781708028453 110.12019861986
0.827000000000000 0.9771965478359 109.51700704680 0.0992738007499 -162.7404841234 0.0992738007499 -162.7404841234 0.9775828317903 109.50663017906
0.828000000000000 0.9765783110755 108.89123418455 0.1017511690209 -163.4023919204 0.1017511690209 -163.4023919204 0.9769654754873 108.88077504245
0.829000000000000 0.9759288369138 108.25269036663 0.1043264530420 -164.0778580323 0.1043264530420 -164.0778580323 0.9763167803489 108.24215026060
0.830000000000000 0.9752460128992 107.60086761460 0.1070045746025 -164.7674180506 0.1070045746025 -164.7674180506 0.9756346336348 107.59024785726
0.831000000000000 0.9745275524371 106.93523134649 0.1097907496647 -165.4716354995 0.1097907496647 -165.4716354995 0.9749167483946 106.92453325312
0.832000000000000 0.9737709781452 106.25521868883 0.1126905078864 -166.1911036006 0.1126905078864 -166.1911036006 0.9741606468166 106.24444357784
0.833000000000000 0.9729736034368 105.56023666894 0.1157097134451 -166.9264471616 0.1157097134451 -166.9264471616 0.9733636418039 105.54938586247
0.834000000000000 0.9721325121251 104.84966027909 0.1188545872314 -167.6783246002 0.1188545872314 -167.6783246002 0.9725228165712 104.83873510357
0.835000000000000 0.9712445358240 104.12283040341 0.1221317304708 -168.4474301102 0.1221317304708 -168.4474301102 0.9716350020368 104.11183219024
0.836000000000000 0.9703062288894 103.37905159847 0.1255481498327 -169.2344959802 0.1255481498327 -169.2344959802 0.9706967517545 103.36798168474
0.837000000000000 0.9693138406183 102.61758971769 0.1291112840736 -170.0402950766 0.1291112840736 -170.0402950766 0.9697043141023 102.60644944698
0.838000000000000 0.9682632843882 101.83766936981 0.1328290322496 -170.8656434986 0.1328290322496 -170.8656434986 0.9686536014108 101.82646009305
0.839000000000000 0.9671501033857 101.03847120124 0.1367097835180 -171.7114034182 0.1367097835180 -171.7114034182 0.9675401556782 101.02719427764
0.840000000000000 0.9659694325296 100.21912899233 0.1407624485247 -172.5784861147 0.1407624485247 -172.5784861147 0.9663591104809 100.20778579044
0.841000000000000 0.9647159561566 99.378726557726 0.1449964923429 -173.4678552147 0.1449964923429 -173.4678552147 0.9651051486431 99.367318456584
0.842000000000000 0.9633838609849 98.516294441570 0.1494219688919 -174.3805301469 0.1494219688919 -174.3805301469 0.9637724551837 98.504822831932
0.843000000000000 0.9619667838262 97.630806399032 0.1540495567146 -175.3175898219 0.1540495567146 -175.3175898219 0.9623546650099 97.619272684768
0.844000000000000 0.9604577534617 96.721175657227 0.1588905959265 -176.2801765440 0.1588905959265 -176.2801765440 0.9608448047732 96.709581256833
0.845000000000000 0.9588491260439 95.786250950399 0.1639571260725 -177.2695001616 0.1639571260725 -177.2695001616 0.9592352282482 95.774597298665
0.846000000000000 0.9571325133316 94.824812327070 0.1692619245222 -178.2868424588 0.1692619245222 -178.2868424588 0.9575175445436 94.813100876926
0.847000000000000 0.9552987030112 93.835566730603 0.1748185449131 -179.3335617892 0.1748185449131 -179.3335617892 0.9556825383964 93.823798955144
0.848000000000000 0.9533375703081 92.817143359570 0.1806413549895 179.58890205544 0.1806413549895 179.58890205544 0.9537200817536 92.805320754302
0.849000000000000 0.9512379800506 91.768088820927 0.1867455729949 178.47902275156 0.1867455729949 178.47902275156 0.9516190358042 91.756212906249
0.850000000000000 0.9489876783210 90.686862097396 0.1931473015367 177.33518214646 0.1931473015367 177.33518214646 0.9493671425948 90.674934421343
0.851000000000000 0.9465731728192 89.571829361350 0.1998635575500 176.15566478770 0.1998635575500 176.15566478770 0.9469509053554 89.559851502637
0.852000000000000 0.9439796010906 88.421258681279 0.2069122966361 174.93865232411 0.2069122966361 174.93865232411 0.9443554566855 88.409232252676
0.853000000000000 0.9411905858330 87.233314684254 0.2143124296222 173.68221784028 0.2143124296222 173.68221784028 0.9415644138169 87.221241336340
0.854000000000000 0.9381880766269 86.006053259551 0.2220838286779 172.38432020810 0.2220838286779 172.38432020810 0.9385597202961 85.993934684882
0.855000000000000 0.9349521776433 84.737416415473 0.2302473197132 171.04279856598 0.2302473197132 171.04279856598 0.9353214736418 84.725254353234
0.856000000000000 0.9314609612020 83.425227434618 0.2388246570613 169.65536706935 0.2388246570613 169.65536706935 0.9318277388499 83.413023675805
0.857000000000000 0.9276902675247 82.067186513292 0.2478384756089 168.21961009657 0.2478384756089 168.21961009657 0.9280543480914 82.054942906499
0.858000000000000 0.9236134916821 80.660867119815 0.2573122145633 166.73297814365 0.2573122145633 166.73297814365 0.9239746876034 80.648585577720
0.859000000000000 0.9192013596429 79.203713365302 0.2672700059435 165.19278469998 0.2672700059435 165.19278469998 0.9195594736822 79.191395871913
0.860000000000000 0.9144216965486 77.693038750191 0.2777365196544 163.59620446742 0.2777365196544 163.59620446742 0.9147765209035 77.680687368998
0.861000000000000 0.9092391919423 76.126026731504 0.2887367556677 161.94027336691 0.2887367556677 161.94027336691 0.9095905073026 76.113643614622
0.862000000000000 0.9036151687662 74.499733649818 0.3002957724492 160.22189087151 0.3002957724492 160.22189087151 0.9039627433289 74.487321048292
0.863000000000000 0.8975073655901 72.811094661221 0.3124383393883 158.43782531181 0.3124383393883 158.43782531181 0.8978509540449 72.798654936636
0.864000000000000 0.8908697448541 71.056933436404 0.3251884997516 156.58472291735 0.3251884997516 156.58472291735 0.8912090873568 71.044469074007
0.865000000000000 0.8836523439718 69.233976513422 0.3385690297463 154.65912148380 0.3385690297463 154.65912148380 0.8839871651285 69.221490136958
0.866000000000000 0.8758011910019 67.338873316374 0.3526007789077 152.65746968296 0.3526007789077 152.65746968296 0.8761311988977 67.326367704911
0.867000000000000 0.8672583122496 65.368222969853 0.3673018775537 150.57615315295 0.3673018775537 150.57615315295 0.8675831975652 65.355701076886
0.868000000000000 0.8579618654959 63.318609134011 0.3826867989089 148.41152860439 0.3826867989089 148.41152860439 0.8582813007652 63.306074109187
0.869000000000000 0.8478464392982 61.186644137065 0.3987652672610 146.15996723462 0.3987652672610 146.15996723462 0.8481600783781 61.174099350956
0.870000000000000 0.8368435654913 58.969023663559 0.4155410097911 143.81790872962 0.4155410097911 143.81790872962 0.8371510433260 58.956472735945
0.871000000000000 0.8248824978243 56.662593132335 0.4330103592404 141.38192701669 0.4330103592404 141.38192701669 0.8251834306066 56.650039964561
0.872000000000000 0.8118913134566 54.264426625380 0.4511607279836 138.84880866843 0.4511607279836 138.84880866843 0.8121852993014 54.251875437456
0.873000000000000 0.7977983941704 51.771918759484 0.4699689918916 136.21564440294 0.4699689918916 136.21564440294 0.7980850144329 51.759374132690
0.874000000000000 0.7825343386201 49.182889178363 0.4893998446783 133.47993342864 0.4893998446783 133.47993342864 0.7828131600006 49.170356104279
0.875000000000000 0.7660343433545 46.495698342441 0.5094042096853 130.63969940526 0.5094042096853 130.63969940526 0.7663049209336 46.483182279475
0.876000000000000 0.7482410662747 43.709371985713 0.5299178246935 127.69361551533 0.5299178246935 127.69361551533 0.7485029476169 43.696878924396
0.877000000000000 0.7291079496287 40.823730009132 0.5508601434503 124.64113458160 0.5508601434503 124.64113458160 0.7293606800693 40.811266547668
0.878000000000000 0.7086029296940 37.839513758103 0.5721337207040 121.48261839685 0.5721337207040 121.48261839685 0.7088460588806 37.827087189929
0.879000000000000 0.6867123981517 34.758503731078 0.5936242597125 118.21945860272 0.5936242597125 118.21945860272 0.6869454878516 34.746122146508
0.880000000000000 0.6634452100043 31.583618012690 0.6152014955334 114.85417979316 0.6152014955334 114.85417979316 0.6636678431007 31.571290417046
0.881000000000000 0.6388364626650 28.318980420671 0.6367210572186 111.39051433548 0.6367210572186 111.39051433548 0.6390482531576 28.306716871731
0.882000000000000 0.6129507122355 24.969946848903 0.6580273926148 107.83343805592 0.6580273926148 107.83343805592 0.6131513159448 24.957758616939
