! Sonnet Data File
! From: em Version : 19.52.2025
! From Project: filter_example_one_reference_step_eval_fixheight
! Data is De-embedded 
! Data File Written: 04/27/2026 18:56:38
!< HDATE 04/27/2026 18:37:58
!< MDATE 04/27/2026 18:37:58
!< PARAMS
!< W_outer_pair_gui = 12
!< W_mid_res_gui = 23
!< G_adj_gui = 1.15
!< G_cross_gui = 1.8
!< P_feed_gui = 4.6
!< W_feed_gui = 1.1
!< G_mid_open_gui = 1.2
!< G_outer_open_gui = 1.1
!< END PARAMS
# GHZ S MA R 50.00000
0.750000000000000 0.9916860934872 139.10437961541 0.0312209565360 -131.7158358862 0.0312209565360 -131.7158358862 0.9916860873853 139.10434632864
0.751000000000000 0.9916257923973 138.83969578222 0.0315122335720 -131.9921696248 0.0315122335720 -131.9921696248 0.9916237255130 138.83961013203
0.752000000000000 0.9915642327073 138.57345530946 0.0318099400603 -132.2702024550 0.0318099400603 -132.2702024550 0.9915601559262 138.57331411811
0.753000000000000 0.9915013767111 138.30562564378 0.0321142523837 -132.5499695661 0.0321142523837 -132.5499695661 0.9914953405373 138.30542580955
0.754000000000000 0.9914371852823 138.03617337302 0.0324253529175 -132.8315070568 0.0324253529175 -132.8315070568 0.9914292398358 138.03591186978
0.755000000000000 0.9913716178101 137.76506419735 0.0327434302714 -133.1148519658 0.0327434302714 -133.1148519658 0.9913618128235 137.76473807400
0.756000000000000 0.9913046321302 137.49226289925 0.0330686795437 -133.4000423037 0.0330686795437 -133.4000423037 0.9912930169450 137.49186927921
0.757000000000000 0.9912361844522 137.21773331212 0.0334013025871 -133.6871170868 0.0334013025871 -133.6871170868 0.9912228080150 137.21726939277
0.758000000000000 0.9911662292828 136.94143828777 0.0337415082870 -133.9761163709 0.0337415082870 -133.9761163709 0.9911511401421 136.94090133992
0.759000000000000 0.9910947193444 136.66333966237 0.0340895128534 -134.2670812878 0.0340895128534 -134.2670812878 0.9910779656471 136.66272702971
0.760000000000000 0.9910216054901 136.38339822109 0.0344455401269 -134.5600540830 0.0344455401269 -134.5600540830 0.9910032349779 136.38270731969
0.761000000000000 0.9909468366131 136.10157366124 0.0348098218991 -134.8550781546 0.0348098218991 -134.8550781546 0.9909268966187 136.10080197898
0.762000000000000 0.9908703595509 135.81782455381 0.0351825982491 -135.1521980943 0.0351825982491 -135.1521980943 0.9908488969950 135.81696964985
0.763000000000000 0.9907921189845 135.53210830336 0.0355641178961 -135.4514597300 0.0355641178961 -135.4514597300 0.9907691803724 135.53116780761
0.764000000000000 0.9907120573315 135.24438110622 0.0359546385696 -135.7529101698 0.0359546385696 -135.7529101698 0.9906876887496 135.24335271881
0.765000000000000 0.9906301146333 134.95459790683 0.0363544273981 -136.0565978492 0.0363544273981 -136.0565978492 0.9906043617455 134.95347939758
0.766000000000000 0.9905462284349 134.66271235224 0.0367637613168 -136.3625725788 0.0367637613168 -136.3625725788 0.9905191364794 134.66150156012
0.767000000000000 0.9904603336585 134.36867674449 0.0371829274965 -136.6708855950 0.0371829274965 -136.6708855950 0.9904319474447 134.36737157708
0.768000000000000 0.9903723624690 134.07244199101 0.0376122237934 -136.9815896130 0.0376122237934 -136.9815896130 0.9903427263737 134.07104042400
0.769000000000000 0.9902822441316 133.77395755270 0.0380519592223 -137.2947388814 0.0380519592223 -137.2947388814 0.9902514020962 133.77245762932
0.770000000000000 0.9901899048607 133.47317138975 0.0385024544542 -137.6103892406 0.0385024544542 -137.6103892406 0.9901579003875 133.47157122026
0.771000000000000 0.9900952676599 133.17002990492 0.0389640423390 -137.9285981822 0.0389640423390 -137.9285981822 0.9900621438088 133.16832766607
0.772000000000000 0.9899982521515 132.86447788430 0.0394370684562 -138.2494249126 0.0394370684562 -138.2494249126 0.9899640515370 132.86267181881
0.773000000000000 0.9898987743958 132.55645843532 0.0399218916934 -138.5729304187 0.0399218916934 -138.5729304187 0.9898635391834 132.55454685135
0.774000000000000 0.9897967466994 132.24591292185 0.0404188848559 -138.8991775366 0.0404188848559 -138.8991775366 0.9897605186024 132.24389419246
0.775000000000000 0.9896920774105 131.93278089634 0.0409284353089 -139.2282310240 0.0409284353089 -139.2282310240 0.9896548976868 131.93065345895
0.776000000000000 0.9895846707022 131.61700002866 0.0414509456527 -139.5601576359 0.0414509456527 -139.5601576359 0.9895465801507 131.61476238454
0.777000000000000 0.9894744263409 131.29850603166 0.0419868344359 -139.8950262033 0.0419868344359 -139.8950262033 0.9894354652987 131.29615674541
0.778000000000000 0.9893612394407 130.97723258312 0.0425365369054 -140.2329077165 0.0425365369054 -140.2329077165 0.9893214477791 130.97477028209
0.779000000000000 0.9892450002005 130.65311124395 0.0431005057983 -140.5738754120 0.0431005057983 -140.5738754120 0.9892044173222 130.65053461776
0.780000000000000 0.9891255936251 130.32607137238 0.0436792121774 -140.9180048634 0.0436792121774 -140.9180048634 0.9890842584606 130.32337917235
0.781000000000000 0.9890028992268 129.99604003400 0.0442731463113 -141.2653740770 0.0442731463113 -141.2653740770 0.9889608502309 129.99323107266
0.782000000000000 0.9888767907073 129.66294190736 0.0448828186052 -141.6160635926 0.0448828186052 -141.6160635926 0.9888340658561 129.66001505786
0.783000000000000 0.9887471356183 129.32669918478 0.0455087605824 -141.9701565882 0.0455087605824 -141.9701565882 0.9887037724052 129.32365338042
0.784000000000000 0.9886137949982 128.98723146832 0.0461515259218 -142.3277389907 0.0461515259218 -142.3277389907 0.9885698304308 128.98406570198
0.785000000000000 0.9884766229849 128.64445566040 0.0468116915534 -142.6888995922 0.0468116915534 -142.6888995922 0.9884320935812 128.64116898400
0.786000000000000 0.9883354664004 128.29828584885 0.0474898588173 -143.0537301720 0.0474898588173 -143.0537301720 0.9882904081857 128.29487737283
0.787000000000000 0.9881901643075 127.94863318608 0.0481866546884 -143.4223256248 0.0481866546884 -143.4223256248 0.9881446128102 127.94510207887
0.788000000000000 0.9880405475340 127.59540576202 0.0489027330725 -143.7947840956 0.0489027330725 -143.7947840956 0.9879945377823 127.59175124947
0.789000000000000 0.9878864381640 127.23850847029 0.0496387761772 -144.1712071219 0.0496387761772 -144.1712071219 0.9878400046820 127.23472983517
0.790000000000000 0.9877276489916 126.87784286753 0.0503954959637 -144.5516997827 0.0503954959637 -144.5516997827 0.9876808257956 126.87393944896
0.791000000000000 0.9875639829354 126.51330702504 0.0511736356843 -144.9363708562 0.0511736356843 -144.9363708562 0.9875168035300 126.50927821797
0.792000000000000 0.9873952324100 126.14479537267 0.0519739715108 -145.3253329854 0.0519739715108 -145.3253329854 0.9873477297840 126.14064062731
0.793000000000000 0.9872211786508 125.77219853413 0.0527973142608 -145.7187028525 0.0527973142608 -145.7187028525 0.9871733852732 125.76791735544
0.794000000000000 0.9870415909883 125.39540315342 0.0536445112272 -146.1166013633 0.0536445112272 -146.1166013633 0.9869935388044 125.39099510054
0.795000000000000 0.9868562260678 125.01429171173 0.0545164481196 -146.5191538413 0.0545164481196 -146.5191538413 0.9868079464948 125.00975639742
0.796000000000000 0.9866648270096 124.62874233413 0.0554140511237 -146.9264902325 0.0554140511237 -146.9264902325 0.9866163509320 124.62407942425
0.797000000000000 0.9864671225048 124.23862858559 0.0563382890868 -147.3387453218 0.0563382890868 -147.3387453218 0.9864184802702 124.23383779852
0.798000000000000 0.9862628258401 123.84381925538 0.0572901758394 -147.7560589613 0.0572901758394 -147.7560589613 0.9862140472546 123.83890036147
0.799000000000000 0.9860516338479 123.44417812932 0.0582707726606 -148.1785763118 0.0582707726606 -148.1785763118 0.9860027481711 123.43913095035
0.800000000000000 0.9858332257712 123.03956374897 0.0592811908983 -148.6064480975 0.0592811908983 -148.6064480975 0.9857842617117 123.03438815757
0.801000000000000 0.9856072620399 122.62982915692 0.0603225947551 -149.0398308765 0.0603225947551 -149.0398308765 0.9855582477496 122.62452507599
0.802000000000000 0.9853733829470 122.21482162716 0.0613962042499 -149.4788873256 0.0613962042499 -149.4788873256 0.9853243460164 122.20938902935
0.803000000000000 0.9851312072177 121.79438237978 0.0625032983700 -149.9237865426 0.0625032983700 -149.9237865426 0.9850821746703 121.78882128686
0.804000000000000 0.9848803304611 121.36834627861 0.0636452184256 -150.3747043664 0.0636452184256 -150.3747043664 0.9848313287476 121.36265676093
0.805000000000000 0.9846203234929 120.93654151087 0.0648233716207 -150.8318237158 0.0648233716207 -150.8318237158 0.9845713784852 120.93072368678
0.806000000000000 0.9843507305177 120.49878924754 0.0660392348570 -151.2953349489 0.0660392348570 -151.2953349489 0.9843018675034 120.49284328279
0.807000000000000 0.9840710671582 120.05490328303 0.0672943587872 -151.7654362442 0.0672943587872 -151.7654362442 0.9840223108336 120.04882939022
0.808000000000000 0.9837808183154 119.60468965287 0.0685903721346 -152.2423340050 0.0685903721346 -152.2423340050 0.9837321927789 119.59848809079
0.809000000000000 0.9834794358442 119.14794622764 0.0699289862992 -152.7262432882 0.0699289862992 -152.7262432882 0.9834309645897 119.14161730074
0.810000000000000 0.9831663360272 118.68446228176 0.0713120002714 -153.2173882608 0.0713120002714 -153.2173882608 0.9831180419367 118.67800633950
0.811000000000000 0.9828408968259 118.21401803509 0.0727413058735 -153.7160026835 0.0727413058735 -153.7160026835 0.9827928021617 118.20743547137
0.812000000000000 0.9825024548882 117.73638416555 0.0742188933551 -154.2223304263 0.0742188933551 -154.2223304263 0.9824545812850 117.72967541807
0.813000000000000 0.9821503022870 117.25132129060 0.0757468573672 -154.7366260153 0.0757468573672 -154.7366260153 0.9821026707436 117.24448684023
0.814000000000000 0.9817836829642 116.75857941534 0.0773274033417 -155.2591552165 0.0773274033417 -155.2591552165 0.9817363138348 116.75161978554
0.815000000000000 0.9814017888494 116.25789734490 0.0789628543074 -155.7901956550 0.0789628543074 -155.7901956550 0.9813547018342 116.25081310103
0.816000000000000 0.9810037556205 115.74900205829 0.0806556581725 -156.3300374768 0.0806556581725 -156.3300374768 0.9809569697560 115.74179380700
0.817000000000000 0.9805886580687 115.23160804111 0.0824083955094 -156.8789840523 0.0824083955094 -156.8789840523 0.9805421917175 115.22427642968
0.818000000000000 0.9801555050282 114.70541657391 0.0842237878761 -157.4373527273 0.0842237878761 -157.4373527273 0.9801093758682 114.69796228961
0.819000000000000 0.9797032338238 114.17011497305 0.0861047067144 -158.0054756235 0.0861047067144 -158.0054756235 0.9796574588368 114.16253874246
0.820000000000000 0.9792307041859 113.62537578040 0.0880541828658 -158.5837004932 0.0880541828658 -158.5837004932 0.9791852996456 113.61767836874
0.821000000000000 0.9787366915769 113.07085589816 0.0900754167488 -159.1723916312 0.0900754167488 -159.1723916312 0.9786916730360 113.06303810860
0.822000000000000 0.9782198798650 112.50619566463 0.0921717892457 -159.7719308489 0.0921717892457 -159.7719308489 0.9781752621420 112.49825833760
0.823000000000000 0.9776788532756 111.93101786655 0.0943468733463 -160.3827185156 0.0943468733463 -160.3827185156 0.9776346504406 111.92296187905
0.824000000000000 0.9771120875419 111.34492668327 0.0966044466039 -161.0051746705 0.0966044466039 -161.0051746705 0.9770683129013 111.33675294814
0.825000000000000 0.9765179401663 110.74750655761 0.0989485044561 -161.6397402125 0.0989485044561 -161.6397402125 0.9764746062469 110.73921602280
0.826000000000000 0.9758946396948 110.13832098789 0.1013832744698 -162.2868781724 0.1013832744698 -162.2868781724 0.9758517582269 110.12991463576
0.827000000000000 0.9752402738956 109.51691123542 0.1039132315708 -162.9470750744 0.1039132315708 -162.9470750744 0.9751978557952 109.50839008194
0.828000000000000 0.9745527767186 108.88279494093 0.1065431143203 -163.6208423931 0.1065431143203 -163.6208423931 0.9745108320682 108.87416003496
0.829000000000000 0.9738299138990 108.23546464346 0.1092779423016 -164.3087181127 0.1092779423016 -164.3087181127 0.9737884519274 108.22671706595
0.830000000000000 0.9730692670526 107.57438619439 0.1121230346847 -165.0112683973 0.1121230346847 -165.0112683973 0.9730282961135 107.56552705761
0.831000000000000 0.9722682160908 106.89899705913 0.1150840300320 -165.7290893788 0.1150840300320 -165.7290893788 0.9722277436398 106.89002750585
0.832000000000000 0.9714239197643 106.20870449838 0.1181669074109 -166.4628090716 0.1181669074109 -166.4628090716 0.9713839523348 106.19962570110
0.833000000000000 0.9705332941218 105.50288362061 0.1213780088761 -167.2130894235 0.1213780088761 -167.2130894235 0.9704938372995 105.49369678065
0.834000000000000 0.9695929886443 104.78087529669 0.1247240633786 -167.9806285111 0.1247240633786 -167.9806285111 0.9695540470393 104.77158164342
0.835000000000000 0.9685993597877 104.04198392774 0.1282122121535 -168.7661628903 0.1282122121535 -168.7661628903 0.9685609370061 104.03258471768
0.836000000000000 0.9675484416378 103.28547505644 0.1318500356269 -169.5704701127 0.1318500356269 -169.5704701127 0.9675105402502 103.27597157241
0.837000000000000 0.9664359133427 102.51057281226 0.1356455818710 -170.3943714164 0.1356455818710 -170.3943714164 0.9663985348519 102.50096636247
0.838000000000000 0.9652570629570 101.71645718072 0.1396073966134 -171.2387346039 0.1396073966134 -171.2387346039 0.9652202077630 101.70674909788
0.839000000000000 0.9640067472850 100.90226108718 0.1437445547868 -172.1044771160 0.1437445547868 -172.1044771160 0.9639704146480 100.89245272756
0.840000000000000 0.9626793472697 100.06706728559 0.1480666935664 -172.9925693137 0.1480666935664 -172.9925693137 0.9626435352712 100.05716002812
0.841000000000000 0.9612687184261 99.209905043912 0.1525840468049 -173.9040379755 0.1525840468049 -173.9040379755 0.9612334239273 99.199900289184
0.842000000000000 0.9597681357650 98.329746618318 0.1573074807172 -174.8399700209 0.1573074807172 -174.8399700209 0.9597333543629 98.319645787682
0.843000000000000 0.9581702326028 97.425503510452 0.1622485305978 -175.8015164665 0.1622485305978 -175.8015164665 0.9581359585842 97.415308045014
0.844000000000000 0.9564669325979 96.496022503946 0.1674194382683 -176.7898966194 0.1674194382683 -176.7898966194 0.9564331588900 96.485733863597
0.845000000000000 0.9546493742973 95.540081479700 0.1728331898398 -177.8064025108 0.1728331898398 -177.8064025108 0.9546160924172 95.529701142131
0.846000000000000 0.9527078274314 94.556385013564 0.1785035532431 -178.8524035669 0.1785035532431 -178.8524035669 0.9526750274313 94.545914473277
0.847000000000000 0.9506316001414 93.543559765661 0.1844451148052 -179.9293515107 0.1844451148052 -179.9293515107 0.9505992705529 93.533000532987
0.848000000000000 0.9484089362944 92.500149677805 0.1906733139477 178.96121452023 0.1906733139477 178.96121452023 0.9483770640696 92.489503277916
0.849000000000000 0.9460269020167 91.424611004806 0.1972044748240 177.81766266441 0.1972044748240 177.81766266441 0.9459954724672 91.413878976752
0.850000000000000 0.9434712605824 90.315307217377 0.2040558334042 176.63826286881 0.2040558334042 176.63826286881 0.9434402573168 90.304491113137
0.851000000000000 0.9407263348355 89.170503829399 0.2112455581371 175.42118131491 0.2112455581371 175.42118131491 0.9406957396950 89.159605212960
0.852000000000000 0.9377748564103 87.988363221231 0.2187927618675 174.16447480628 0.2187927618675 174.16447480628 0.9377446494040 87.977383667709
0.853000000000000 0.9345978011772 86.766939554312 0.2267175021426 172.86608520987 0.2267175021426 172.86608520987 0.9345679604167 86.755880649130
0.854000000000000 0.9311742105910 85.504173901462 0.2350407663955 171.52383407202 0.2350407663955 171.52383407202 0.9311447122259 85.493037239597
0.855000000000000 0.9274809989939 84.197889753072 0.2437844377411 170.13541756537 0.2437844377411 170.13541756537 0.9274518171501 84.186676938389
0.856000000000000 0.9234927474683 82.845789102952 0.2529712362310 168.69840196656 0.2529712362310 168.69840196656 0.9234638541892 82.834501747666
0.857000000000000 0.9191814855800 81.445449370231 0.2626246294108 167.21021991625 0.2626246294108 167.21021991625 0.9191528507737 81.434089094503
0.858000000000000 0.9145164633776 79.994321476551 0.2727687048782 165.66816777611 0.2727687048782 165.66816777611 0.9144880547726 79.982889908272
0.859000000000000 0.9094639173727 78.489729472092 0.2834279962866 164.06940447087 0.2834279962866 164.06940447087 0.9094357004850 78.478228246894
0.860000000000000 0.9039868360084 76.928872190496 0.2946272528922 162.41095229005 0.2946272528922 162.41095229005 0.9039587741231 76.917302952037
0.861000000000000 0.8980447324170 75.308827511907 0.3063911413641 160.68970022246 0.3063911413641 160.68970022246 0.8980167865901 75.297191912504
0.862000000000000 0.8915934351678 73.626559924563 0.3187438672505 158.90241050787 0.3187438672505 158.90241050787 0.8915655642531 73.614859626239
0.863000000000000 0.8845849113043 71.878932196656 0.3317087023620 157.04572921102 0.3317087023620 157.04572921102 0.8845570720116 71.867168872704
0.864000000000000 0.8769671403382 70.062722097557 0.3453074035849 155.11620175078 0.3453074035849 155.11620175078 0.8769392873305 70.050897434731
0.865000000000000 0.8686840630390 68.174645233926 0.3595595085652 153.11029444346 0.3595595085652 153.11029444346 0.8686561490779 68.162760935389
0.866000000000000 0.8596756347991 66.211385180736 0.3744814946665 151.02442323467 0.3744814946665 151.02442323467 0.8596476109471 66.199442969946
0.867000000000000 0.8498780198885 64.169632173681 0.3900857900854 148.85499088130 0.3900857900854 148.85499088130 0.8498498357800 64.157633799405
0.868000000000000 0.8392239697228 62.046131665193 0.4063796305893 146.59843388235 0.4063796305893 146.59843388235 0.8391955739149 62.034078907903
0.869000000000000 0.8276434347457 59.837744001443 0.4233637626835 144.25128041512 0.4233637626835 144.25128041512 0.8276147751614 59.825638681389
0.870000000000000 0.8150644647551 57.541516314521 0.4410310048150 141.81022037382 0.4410310048150 141.81022037382 0.8150354892308 57.529360301849
0.871000000000000 0.8014144551578 55.154767397871 0.4593646931032 139.27218828651 0.4593646931032 139.27218828651 0.8013851121062 55.142562625235
0.872000000000000 0.7866217949434 52.675185795206 0.4783370574332 136.63445935675 0.4783370574332 136.63445935675 0.7865920341413 52.662934273416
0.873000000000000 0.7706179639504 50.100940536451 0.4979075974726 133.89475809022 0.4979075974726 133.89475809022 0.7705877374568 50.088644373835
0.874000000000000 0.7533401098125 47.430802862776 0.5180215553887 131.05137789100 0.5180215553887 131.05137789100 0.7533093730183 47.418464289060
0.875000000000000 0.7347341064664 44.664275885338 0.5386086107646 128.10330863661 0.5386086107646 128.10330863661 0.7347028192685 44.651897281067
0.876000000000000 0.7147580545611 41.801727450353 0.5595819500003 125.05036759938 0.5595819500003 125.05036759938 0.7147261826465 41.789311383081
0.877000000000000 0.6933861292793 38.844519629132 0.5808378823506 121.89332727086 0.5808378823506 121.89332727086 0.6933536454925 38.832068897901
0.878000000000000 0.6706126151170 35.795126385608 0.6022561813588 118.63403183893 0.6022561813588 118.63403183893 0.6705795008739 35.782644075570
0.879000000000000 0.6464558955583 32.657229347887 0.6237013168122 115.27549252462 0.6237013168122 115.27549252462 0.6464221422579 32.644718897381
0.880000000000000 0.6209620976902 29.435780545864 0.6450247022605 111.82195103614 0.6450247022605 111.82195103614 0.6209277080651 29.423245828737
0.881000000000000 0.5942080405070 26.137020822471 0.6660680130921 108.27890040435 0.6660680130921 108.27890040435 0.5941730298475 26.124466249089
0.882000000000000 0.5663031158280 22.768443687177 0.6866675315587 104.65305374895 0.6866675315587 104.65305374895 0.5662675130123 22.755874328316
